f[Hz] Re(Zlong) Im(Zlong) [Ohm]
1e+06	0.0013506	2.2054
1.01e+08	42.688	212.84
2.01e+08	137.27	417.98
3.01e+08	352.08	625.52
4.01e+08	738.54	693.24
5.01e+08	1102.9	452.42
6.01e+08	1187.8	82.256
7.01e+08	1082.7	-173.49
8.01e+08	941.83	-301.66
9.01e+08	820.91	-356.4
1.001e+09	727.5	-375.05
1.101e+09	657.33	-376.98
1.201e+09	604.78	-371.98
1.301e+09	565	-365.03
1.401e+09	534.13	-358.6
1.501e+09	509.14	-353.72
1.601e+09	487.8	-350.53
1.701e+09	468.58	-348.69
1.801e+09	450.58	-347.66
1.901e+09	433.33	-346.92
2.001e+09	416.67	-346.07
2.101e+09	400.61	-344.87
2.201e+09	385.21	-343.21
2.301e+09	370.53	-341.07
2.401e+09	356.62	-338.5
2.501e+09	343.49	-335.55
2.601e+09	331.12	-332.3
2.701e+09	319.51	-328.82
2.801e+09	308.61	-325.16
2.901e+09	298.38	-321.38
3.001e+09	288.78	-317.53
3.101e+09	279.76	-313.63
3.201e+09	271.29	-309.71
3.301e+09	263.32	-305.81
3.401e+09	255.82	-301.93
3.501e+09	248.75	-298.09
3.601e+09	242.08	-294.31
3.701e+09	235.78	-290.58
3.801e+09	229.81	-286.93
3.901e+09	224.17	-283.34
4.001e+09	218.82	-279.83
4.101e+09	213.74	-276.4
4.201e+09	208.91	-273.05
4.301e+09	204.32	-269.78
4.401e+09	199.95	-266.59
4.501e+09	195.78	-263.48
4.601e+09	191.8	-260.45
4.701e+09	188	-257.5
4.801e+09	184.36	-254.63
4.901e+09	180.88	-251.83
5.001e+09	177.54	-249.1
5.101e+09	174.33	-246.44
5.201e+09	171.25	-243.86
5.301e+09	168.29	-241.34
5.401e+09	165.44	-238.89
5.501e+09	162.7	-236.5
5.601e+09	160.05	-234.17
5.701e+09	157.49	-231.9
5.801e+09	155.02	-229.69
5.901e+09	152.64	-227.53
6.001e+09	150.33	-225.43
6.101e+09	148.09	-223.38
6.201e+09	145.93	-221.38
6.301e+09	143.83	-219.42
6.401e+09	141.79	-217.51
6.501e+09	139.81	-215.65
6.601e+09	137.89	-213.83
6.701e+09	136.02	-212.05
6.801e+09	134.2	-210.31
6.901e+09	132.44	-208.61
7.001e+09	130.71	-206.95
7.101e+09	129.04	-205.32
7.201e+09	127.4	-203.73
7.301e+09	125.81	-202.17
7.401e+09	124.25	-200.64
7.501e+09	122.74	-199.15
7.601e+09	121.25	-197.68
7.701e+09	119.81	-196.25
7.801e+09	118.39	-194.84
7.901e+09	117.01	-193.47
8.001e+09	115.65	-192.11
8.101e+09	114.33	-190.79
8.201e+09	113.03	-189.49
8.301e+09	111.76	-188.21
8.401e+09	110.51	-186.96
8.501e+09	109.29	-185.73
8.601e+09	108.1	-184.52
8.701e+09	106.93	-183.33
8.801e+09	105.78	-182.16
8.901e+09	104.65	-181.02
9.001e+09	103.54	-179.89
9.101e+09	102.45	-178.78
9.201e+09	101.38	-177.69
9.301e+09	100.33	-176.61
9.401e+09	99.302	-175.56
9.501e+09	98.289	-174.52
9.601e+09	97.293	-173.49
9.701e+09	96.314	-172.48
9.801e+09	95.351	-171.49
9.901e+09	94.404	-170.51
