f[Hz] Re(Zlong) Im(Zlong) [Ohm]
1e+06	0.0007281	1.7483
1.01e+08	26.762	170.25
2.01e+08	113.62	346.38
3.01e+08	301.99	495.59
4.01e+08	591.45	524.74
5.01e+08	853.72	350.55
6.01e+08	932.26	79.285
7.01e+08	864.35	-125.91
8.01e+08	756.32	-235.75
9.01e+08	658.6	-284.01
1.001e+09	581.92	-300.48
1.101e+09	524.36	-302.11
1.201e+09	481.57	-297.66
1.301e+09	449.49	-291.59
1.401e+09	424.8	-286.04
1.501e+09	404.95	-281.87
1.601e+09	388.05	-279.16
1.701e+09	372.85	-277.6
1.801e+09	358.59	-276.73
1.901e+09	344.92	-276.12
2.001e+09	331.72	-275.44
2.101e+09	318.98	-274.49
2.201e+09	306.75	-273.19
2.301e+09	295.09	-271.51
2.401e+09	284.03	-269.48
2.501e+09	273.57	-267.16
2.601e+09	263.73	-264.6
2.701e+09	254.48	-261.84
2.801e+09	245.79	-258.94
2.901e+09	237.63	-255.94
3.001e+09	229.97	-252.87
3.101e+09	222.79	-249.77
3.201e+09	216.03	-246.65
3.301e+09	209.68	-243.54
3.401e+09	203.7	-240.44
3.501e+09	198.07	-237.38
3.601e+09	192.75	-234.36
3.701e+09	187.73	-231.39
3.801e+09	182.99	-228.48
3.901e+09	178.49	-225.62
4.001e+09	174.24	-222.82
4.101e+09	170.19	-220.09
4.201e+09	166.35	-217.42
4.301e+09	162.7	-214.82
4.401e+09	159.22	-212.28
4.501e+09	155.9	-209.81
4.601e+09	152.74	-207.39
4.701e+09	149.71	-205.04
4.801e+09	146.81	-202.76
4.901e+09	144.04	-200.53
5.001e+09	141.38	-198.36
5.101e+09	138.82	-196.24
5.201e+09	136.37	-194.19
5.301e+09	134.01	-192.18
5.401e+09	131.74	-190.23
5.501e+09	129.55	-188.33
5.601e+09	127.45	-186.47
5.701e+09	125.41	-184.66
5.801e+09	123.44	-182.9
5.901e+09	121.54	-181.19
6.001e+09	119.7	-179.51
6.101e+09	117.92	-177.88
6.201e+09	116.2	-176.28
6.301e+09	114.53	-174.72
6.401e+09	112.9	-173.2
6.501e+09	111.33	-171.72
6.601e+09	109.8	-170.27
6.701e+09	108.31	-168.85
6.801e+09	106.87	-167.47
6.901e+09	105.46	-166.11
7.001e+09	104.09	-164.79
7.101e+09	102.75	-163.49
7.201e+09	101.45	-162.23
7.301e+09	100.18	-160.99
7.401e+09	98.944	-159.77
7.501e+09	97.735	-158.58
7.601e+09	96.555	-157.42
7.701e+09	95.401	-156.27
7.801e+09	94.274	-155.15
7.901e+09	93.171	-154.06
8.001e+09	92.093	-152.98
8.101e+09	91.038	-151.92
8.201e+09	90.004	-150.89
8.301e+09	88.993	-149.87
8.401e+09	88.001	-148.87
8.501e+09	87.03	-147.89
8.601e+09	86.078	-146.93
8.701e+09	85.144	-145.98
8.801e+09	84.228	-145.05
8.901e+09	83.329	-144.14
9.001e+09	82.447	-143.24
9.101e+09	81.581	-142.36
9.201e+09	80.73	-141.49
9.301e+09	79.895	-140.64
9.401e+09	79.074	-139.79
9.501e+09	78.268	-138.97
9.601e+09	77.475	-138.15
9.701e+09	76.695	-137.35
9.801e+09	75.928	-136.56
9.901e+09	75.174	-135.78
