f[Hz] Re(Zlong) Im(Zlong) [Ohm]
1e+06	0.00019605	0.75062
1.01e+08	9.4586	72.132
2.01e+08	31.882	141.54
3.01e+08	70.281	209.49
4.01e+08	129.48	273.57
5.01e+08	214.57	325.15
6.01e+08	324.95	349.02
7.01e+08	447.65	328.35
8.01e+08	556.42	257.11
9.01e+08	624.95	150.15
1.001e+09	644.52	35.703
1.101e+09	625.59	-63.26
1.201e+09	585.28	-137.73
1.301e+09	537.33	-188.93
1.401e+09	489.67	-221.95
1.501e+09	445.91	-242.04
1.601e+09	407.2	-253.37
1.701e+09	373.52	-258.92
1.801e+09	344.4	-260.7
1.901e+09	319.19	-260.06
2.001e+09	297.3	-257.88
2.101e+09	278.18	-254.75
2.201e+09	261.37	-251.03
2.301e+09	246.49	-246.99
2.401e+09	233.24	-242.77
2.501e+09	221.36	-238.48
2.601e+09	210.66	-234.2
2.701e+09	200.97	-229.96
2.801e+09	192.15	-225.8
2.901e+09	184.09	-221.73
3.001e+09	176.7	-217.76
3.101e+09	169.9	-213.91
3.201e+09	163.62	-210.17
3.301e+09	157.81	-206.55
3.401e+09	152.41	-203.05
3.501e+09	147.39	-199.66
3.601e+09	142.71	-196.39
3.701e+09	138.33	-193.23
3.801e+09	134.22	-190.18
3.901e+09	130.37	-187.23
4.001e+09	126.74	-184.39
4.101e+09	123.33	-181.64
4.201e+09	120.1	-178.98
4.301e+09	117.04	-176.42
4.401e+09	114.15	-173.94
4.501e+09	111.41	-171.54
4.601e+09	108.8	-169.22
4.701e+09	106.31	-166.97
4.801e+09	103.95	-164.8
4.901e+09	101.69	-162.69
5.001e+09	99.528	-160.65
5.101e+09	97.463	-158.68
5.201e+09	95.484	-156.76
5.301e+09	93.588	-154.9
5.401e+09	91.767	-153.1
5.501e+09	90.017	-151.34
5.601e+09	88.334	-149.64
5.701e+09	86.714	-147.98
5.801e+09	85.153	-146.37
5.901e+09	83.647	-144.81
6.001e+09	82.193	-143.29
6.101e+09	80.789	-141.8
6.201e+09	79.431	-140.36
6.301e+09	78.118	-138.95
6.401e+09	76.846	-137.58
6.501e+09	75.613	-136.24
6.601e+09	74.418	-134.94
6.701e+09	73.259	-133.67
6.801e+09	72.134	-132.42
6.901e+09	71.04	-131.21
7.001e+09	69.978	-130.02
7.101e+09	68.945	-128.87
7.201e+09	67.939	-127.73
7.301e+09	66.96	-126.63
7.401e+09	66.007	-125.54
7.501e+09	65.078	-124.48
7.601e+09	64.173	-123.44
7.701e+09	63.289	-122.43
7.801e+09	62.428	-121.43
7.901e+09	61.586	-120.46
8.001e+09	60.765	-119.5
8.101e+09	59.962	-118.57
8.201e+09	59.178	-117.65
8.301e+09	58.411	-116.74
8.401e+09	57.661	-115.86
8.501e+09	56.927	-114.99
8.601e+09	56.209	-114.14
8.701e+09	55.506	-113.3
8.801e+09	54.818	-112.48
8.901e+09	54.143	-111.67
9.001e+09	53.483	-110.88
9.101e+09	52.835	-110.1
9.201e+09	52.201	-109.33
9.301e+09	51.578	-108.58
9.401e+09	50.968	-107.84
9.501e+09	50.369	-107.11
9.601e+09	49.781	-106.39
9.701e+09	49.204	-105.68
9.801e+09	48.638	-104.99
9.901e+09	48.082	-104.3
