f[Hz] Re(Zlong) Im(Zlong) [Ohm]
1e+06	0.0020633	7.1283
1.01e+08	107.15	707.28
2.01e+08	426.09	1414.5
3.01e+08	1090.5	2073.2
4.01e+08	2184.1	2402.6
5.01e+08	3416.6	2004.6
6.01e+08	4132.9	961.35
7.01e+08	4126.3	-94.869
8.01e+08	3743.2	-795.29
9.01e+08	3294.9	-1168.8
1.001e+09	2902.9	-1340.5
1.101e+09	2590	-1404
1.201e+09	2347.6	-1413.6
1.301e+09	2160.6	-1399
1.401e+09	2015	-1375.9
1.501e+09	1899.1	-1352.4
1.601e+09	1803.6	-1332.2
1.701e+09	1721.8	-1316
1.801e+09	1649	-1303.4
1.901e+09	1582.2	-1293.2
2.001e+09	1519.5	-1284.2
2.101e+09	1460.2	-1275.3
2.201e+09	1403.9	-1266
2.301e+09	1350.4	-1255.9
2.401e+09	1299.7	-1244.8
2.501e+09	1251.9	-1232.8
2.601e+09	1206.8	-1220
2.701e+09	1164.4	-1206.5
2.801e+09	1124.5	-1192.5
2.901e+09	1087.1	-1178.2
3.001e+09	1051.9	-1163.6
3.101e+09	1018.9	-1149
3.201e+09	987.9	-1134.3
3.301e+09	958.74	-1119.7
3.401e+09	931.29	-1105.2
3.501e+09	905.42	-1090.9
3.601e+09	881.03	-1076.8
3.701e+09	857.99	-1063
3.801e+09	836.21	-1049.4
3.901e+09	815.6	-1036.1
4.001e+09	796.06	-1023.2
4.101e+09	777.51	-1010.5
4.201e+09	759.9	-998.11
4.301e+09	743.14	-986.05
4.401e+09	727.18	-974.29
4.501e+09	711.97	-962.84
4.601e+09	697.44	-951.68
4.701e+09	683.56	-940.82
4.801e+09	670.28	-930.25
4.901e+09	657.56	-919.95
5.001e+09	645.36	-909.93
5.101e+09	633.66	-900.17
5.201e+09	622.41	-890.67
5.301e+09	611.6	-881.42
5.401e+09	601.19	-872.4
5.501e+09	591.17	-863.63
5.601e+09	581.5	-855.08
5.701e+09	572.17	-846.74
5.801e+09	563.16	-838.62
5.901e+09	554.45	-830.7
6.001e+09	546.03	-822.98
6.101e+09	537.87	-815.45
6.201e+09	529.97	-808.1
6.301e+09	522.31	-800.92
6.401e+09	514.87	-793.92
6.501e+09	507.66	-787.08
6.601e+09	500.65	-780.4
6.701e+09	493.84	-773.88
6.801e+09	487.21	-767.5
6.901e+09	480.77	-761.26
7.001e+09	474.49	-755.17
7.101e+09	468.37	-749.2
7.201e+09	462.41	-743.36
7.301e+09	456.6	-737.65
7.401e+09	450.93	-732.06
7.501e+09	445.39	-726.58
7.601e+09	439.99	-721.21
7.701e+09	434.71	-715.96
7.801e+09	429.55	-710.8
7.901e+09	424.5	-705.75
8.001e+09	419.56	-700.8
8.101e+09	414.73	-695.94
8.201e+09	410	-691.17
8.301e+09	405.37	-686.49
8.401e+09	400.83	-681.89
8.501e+09	396.39	-677.38
8.601e+09	392.03	-672.95
8.701e+09	387.75	-668.6
8.801e+09	383.56	-664.32
8.901e+09	379.45	-660.12
9.001e+09	375.41	-655.98
9.101e+09	371.45	-651.92
9.201e+09	367.56	-647.92
9.301e+09	363.73	-643.98
9.401e+09	359.98	-640.11
9.501e+09	356.29	-636.3
9.601e+09	352.66	-632.55
9.701e+09	349.1	-628.86
9.801e+09	345.59	-625.22
9.901e+09	342.14	-621.64
