f[Hz] Re(Zlong) Im(Zlong) [Ohm]
1e+06	0.0015986	2.4724
1.01e+08	54.549	239.48
2.01e+08	164.25	434.79
3.01e+08	335	626.11
4.01e+08	628.66	779.66
5.01e+08	1052.5	759.47
6.01e+08	1414.5	446.14
7.01e+08	1487	11.023
8.01e+08	1345.4	-300.4
9.01e+08	1157.7	-458.54
1.001e+09	995.72	-524.07
1.101e+09	870.13	-544.34
1.201e+09	774.77	-544.31
1.301e+09	701.67	-535.96
1.401e+09	644.33	-524.89
1.501e+09	598.05	-513.57
1.601e+09	559.47	-502.97
1.701e+09	526.34	-493.31
1.801e+09	497.12	-484.44
1.901e+09	470.85	-476.15
2.001e+09	446.92	-468.21
2.101e+09	424.95	-460.45
2.201e+09	404.68	-452.78
2.301e+09	385.94	-445.13
2.401e+09	368.61	-437.5
2.501e+09	352.56	-429.9
2.601e+09	337.7	-422.36
2.701e+09	323.94	-414.89
2.801e+09	311.18	-407.53
2.901e+09	299.35	-400.31
3.001e+09	288.36	-393.23
3.101e+09	278.15	-386.33
3.201e+09	268.64	-379.6
3.301e+09	259.77	-373.07
3.401e+09	251.5	-366.73
3.501e+09	243.76	-360.59
3.601e+09	236.51	-354.65
3.701e+09	229.71	-348.9
3.801e+09	223.32	-343.35
3.901e+09	217.3	-337.99
4.001e+09	211.62	-332.82
4.101e+09	206.25	-327.82
4.201e+09	201.16	-322.99
4.301e+09	196.34	-318.33
4.401e+09	191.76	-313.84
4.501e+09	187.4	-309.49
4.601e+09	183.24	-305.29
4.701e+09	179.28	-301.22
4.801e+09	175.49	-297.29
4.901e+09	171.86	-293.49
5.001e+09	168.38	-289.8
5.101e+09	165.04	-286.23
5.201e+09	161.83	-282.76
5.301e+09	158.74	-279.4
5.401e+09	155.77	-276.14
5.501e+09	152.91	-272.97
5.601e+09	150.15	-269.88
5.701e+09	147.49	-266.89
5.801e+09	144.91	-263.97
5.901e+09	142.43	-261.13
6.001e+09	140.02	-258.36
6.101e+09	137.7	-255.66
6.201e+09	135.45	-253.04
6.301e+09	133.27	-250.47
6.401e+09	131.15	-247.97
6.501e+09	129.1	-245.54
6.601e+09	127.12	-243.16
6.701e+09	125.19	-240.83
6.801e+09	123.31	-238.56
6.901e+09	121.49	-236.35
7.001e+09	119.72	-234.18
7.101e+09	118	-232.07
7.201e+09	116.33	-230
7.301e+09	114.69	-227.98
7.401e+09	113.1	-226
7.501e+09	111.55	-224.06
7.601e+09	110.04	-222.17
7.701e+09	108.57	-220.32
7.801e+09	107.13	-218.51
7.901e+09	105.72	-216.73
8.001e+09	104.34	-214.99
8.101e+09	103	-213.29
8.201e+09	101.68	-211.62
8.301e+09	100.39	-209.98
8.401e+09	99.132	-208.37
8.501e+09	97.897	-206.79
8.601e+09	96.687	-205.24
8.701e+09	95.501	-203.72
8.801e+09	94.338	-202.23
8.901e+09	93.198	-200.76
9.001e+09	92.08	-199.32
9.101e+09	90.984	-197.9
9.201e+09	89.908	-196.51
9.301e+09	88.853	-195.13
9.401e+09	87.817	-193.78
9.501e+09	86.801	-192.45
9.601e+09	85.804	-191.15
9.701e+09	84.825	-189.86
9.801e+09	83.864	-188.59
9.901e+09	82.92	-187.34
