f[Hz] Re(Zlong) Im(Zlong) [Ohm]
1e+06	0.0011971	3.2811
1.01e+08	47.887	321.3
2.01e+08	199.77	647.12
3.01e+08	515.16	941.37
4.01e+08	1026	1069.9
5.01e+08	1576.7	849.71
6.01e+08	1857.8	356.34
7.01e+08	1815.5	-104.46
8.01e+08	1628	-392.51
9.01e+08	1426.8	-538.9
1.001e+09	1256.8	-602.39
1.101e+09	1123.4	-622.92
1.201e+09	1021.3	-622.86
1.301e+09	943.09	-614.2
1.401e+09	882.44	-603.2
1.501e+09	834.12	-592.92
1.601e+09	794.1	-584.58
1.701e+09	759.47	-578.28
1.801e+09	728.26	-573.58
1.901e+09	699.27	-569.85
2.001e+09	671.87	-566.51
2.101e+09	645.78	-563.1
2.201e+09	620.91	-559.35
2.301e+09	597.25	-555.12
2.401e+09	574.83	-550.41
2.501e+09	553.65	-545.22
2.601e+09	533.69	-539.64
2.701e+09	514.92	-533.74
2.801e+09	497.29	-527.61
2.901e+09	480.73	-521.3
3.001e+09	465.19	-514.89
3.101e+09	450.59	-508.42
3.201e+09	436.88	-501.94
3.301e+09	423.98	-495.49
3.401e+09	411.85	-489.1
3.501e+09	400.41	-482.78
3.601e+09	389.63	-476.56
3.701e+09	379.44	-470.44
3.801e+09	369.81	-464.44
3.901e+09	360.7	-458.57
4.001e+09	352.06	-452.83
4.101e+09	343.86	-447.22
4.201e+09	336.08	-441.75
4.301e+09	328.67	-436.42
4.401e+09	321.61	-431.21
4.501e+09	314.88	-426.15
4.601e+09	308.46	-421.21
4.701e+09	302.32	-416.41
4.801e+09	296.45	-411.73
4.901e+09	290.83	-407.17
5.001e+09	285.44	-402.74
5.101e+09	280.26	-398.42
5.201e+09	275.29	-394.21
5.301e+09	270.51	-390.12
5.401e+09	265.91	-386.13
5.501e+09	261.48	-382.25
5.601e+09	257.2	-378.46
5.701e+09	253.08	-374.77
5.801e+09	249.09	-371.18
5.901e+09	245.24	-367.67
6.001e+09	241.51	-364.26
6.101e+09	237.91	-360.92
6.201e+09	234.41	-357.67
6.301e+09	231.03	-354.5
6.401e+09	227.74	-351.4
6.501e+09	224.55	-348.37
6.601e+09	221.45	-345.41
6.701e+09	218.44	-342.52
6.801e+09	215.51	-339.7
6.901e+09	212.66	-336.94
7.001e+09	209.88	-334.24
7.101e+09	207.18	-331.6
7.201e+09	204.54	-329.02
7.301e+09	201.97	-326.49
7.401e+09	199.46	-324.01
7.501e+09	197.01	-321.59
7.601e+09	194.62	-319.21
7.701e+09	192.29	-316.89
7.801e+09	190.01	-314.6
7.901e+09	187.77	-312.37
8.001e+09	185.59	-310.17
8.101e+09	183.45	-308.02
8.201e+09	181.36	-305.91
8.301e+09	179.31	-303.84
8.401e+09	177.31	-301.81
8.501e+09	175.34	-299.81
8.601e+09	173.41	-297.85
8.701e+09	171.52	-295.92
8.801e+09	169.67	-294.03
8.901e+09	167.85	-292.17
9.001e+09	166.06	-290.34
9.101e+09	164.31	-288.54
9.201e+09	162.59	-286.77
9.301e+09	160.9	-285.02
9.401e+09	159.24	-283.31
9.501e+09	157.61	-281.62
9.601e+09	156	-279.96
9.701e+09	154.42	-278.33
9.801e+09	152.87	-276.72
9.901e+09	151.35	-275.13
