f[Hz] Re(Zlong) Im(Zlong) [Ohm]
1e+06	0.00068776	2.3761
1.01e+08	35.715	235.76
2.01e+08	142.03	471.49
3.01e+08	363.51	691.08
4.01e+08	728.03	800.87
5.01e+08	1138.9	668.18
6.01e+08	1377.6	320.45
7.01e+08	1375.4	-31.623
8.01e+08	1247.7	-265.1
9.01e+08	1098.3	-389.59
1.001e+09	967.63	-446.84
1.101e+09	863.33	-468
1.201e+09	782.53	-471.2
1.301e+09	720.21	-466.32
1.401e+09	671.67	-458.62
1.501e+09	633.02	-450.81
1.601e+09	601.19	-444.06
1.701e+09	573.94	-438.67
1.801e+09	549.67	-434.47
1.901e+09	527.39	-431.07
2.001e+09	506.5	-428.06
2.101e+09	486.73	-425.11
2.201e+09	467.96	-422.01
2.301e+09	450.13	-418.63
2.401e+09	433.24	-414.94
2.501e+09	417.29	-410.94
2.601e+09	402.26	-406.66
2.701e+09	388.12	-402.17
2.801e+09	374.83	-397.51
2.901e+09	362.36	-392.73
3.001e+09	350.64	-387.88
3.101e+09	339.64	-382.99
3.201e+09	329.3	-378.1
3.301e+09	319.58	-373.23
3.401e+09	310.43	-368.4
3.501e+09	301.81	-363.64
3.601e+09	293.68	-358.94
3.701e+09	286	-354.33
3.801e+09	278.74	-349.81
3.901e+09	271.87	-345.38
4.001e+09	265.35	-341.05
4.101e+09	259.17	-336.83
4.201e+09	253.3	-332.7
4.301e+09	247.71	-328.68
4.401e+09	242.39	-324.76
4.501e+09	237.32	-320.95
4.601e+09	232.48	-317.23
4.701e+09	227.85	-313.61
4.801e+09	223.43	-310.08
4.901e+09	219.19	-306.65
5.001e+09	215.12	-303.31
5.101e+09	211.22	-300.06
5.201e+09	207.47	-296.89
5.301e+09	203.87	-293.81
5.401e+09	200.4	-290.8
5.501e+09	197.06	-287.88
5.601e+09	193.83	-285.03
5.701e+09	190.72	-282.25
5.801e+09	187.72	-279.54
5.901e+09	184.82	-276.9
6.001e+09	182.01	-274.33
6.101e+09	179.29	-271.82
6.201e+09	176.66	-269.37
6.301e+09	174.1	-266.97
6.401e+09	171.62	-264.64
6.501e+09	169.22	-262.36
6.601e+09	166.88	-260.13
6.701e+09	164.61	-257.96
6.801e+09	162.4	-255.83
6.901e+09	160.26	-253.75
7.001e+09	158.16	-251.72
7.101e+09	156.12	-249.73
7.201e+09	154.14	-247.79
7.301e+09	152.2	-245.88
7.401e+09	150.31	-244.02
7.501e+09	148.46	-242.19
7.601e+09	146.66	-240.4
7.701e+09	144.9	-238.65
7.801e+09	143.18	-236.93
7.901e+09	141.5	-235.25
8.001e+09	139.85	-233.6
8.101e+09	138.24	-231.98
8.201e+09	136.67	-230.39
8.301e+09	135.12	-228.83
8.401e+09	133.61	-227.3
8.501e+09	132.13	-225.79
8.601e+09	130.68	-224.32
8.701e+09	129.25	-222.87
8.801e+09	127.85	-221.44
8.901e+09	126.48	-220.04
9.001e+09	125.14	-218.66
9.101e+09	123.82	-217.31
9.201e+09	122.52	-215.97
9.301e+09	121.24	-214.66
9.401e+09	119.99	-213.37
9.501e+09	118.76	-212.1
9.601e+09	117.55	-210.85
9.701e+09	116.37	-209.62
9.801e+09	115.2	-208.41
9.901e+09	114.05	-207.21
